
SetupTitle, Resistor
PrimitiveTest, I/V Sweep
TestParameter, Context.MainFrame, 4155B
TestParameter, Channel.UnitType, SMU, SMU
TestParameter, Channel.Unit, SMU1:MP, SMU2:MP
TestParameter, Channel.IName, i1, i2
TestParameter, Channel.VName, v1, v2
TestParameter, Channel.Mode, V, COMMON
TestParameter, Channel.Func, VAR1, CONST
TestParameter, Channel.Index, 
TestParameter, Channel.Time, 
TestParameter, Measurement.Port.Unit, SMU1:MP, SMU2:MP
TestParameter, Measurement.Port.SeriesResistor, NONE, NONE
TestParameter, Measurement.Port.Filter, ON, ON
TestParameter, Measurement.Primary.Locus, Single
TestParameter, Measurement.Primary.Scale, LINEAR
TestParameter, Measurement.Primary.Start, -0.05
TestParameter, Measurement.Primary.Stop, 0.05
TestParameter, Measurement.Primary.Step, 0.001
TestParameter, Measurement.Primary.Compliance, 0.1
TestParameter, Measurement.Primary.PowerCompliance, 0
TestParameter, Measurement.Aborting.Condition, CONTINUE AT ANY
TestParameter, Measurement.PostOutput.Value, START
TestParameter, Measurement.PostOutput.Retention, OFF
TestParameter, Measurement.Bias.Source, -0.05, 0
TestParameter, Measurement.Bias.Compliance, 0.1, 0.1
TestParameter, Measurement.Monitor.Unit, SMU1:MP, SMU2:MP
TestParameter, Measurement.Monitor.Adc, HR ADC, HR ADC
TestParameter, Measurement.Monitor.RangingMode, LIMITED, LIMITED
TestParameter, Measurement.Monitor.RangeBoundary, 1nA, 1nA
TestParameter, Measurement.Monitor.RangeRating, BY FULL RANGE, BY FULL RANGE
TestParameter, Measurement.Monitor.RangeRatingCoeff, 50, 50
TestParameter, Measurement.Timing.Hold, 0
TestParameter, Measurement.Timing.Delay, 0
TestParameter, Measurement.Adc.HighResolution.AutoZero, OFF
TestParameter, Measurement.Adc.HighResolution.Mode, AUTO
TestParameter, Measurement.Adc.HighResolution.Coeff, 1
TestParameter, Measurement.Ag16440ASelector.SemiconductorRelay.Channel1, DEFAULT
TestParameter, Measurement.Ag16440ASelector.SemiconductorRelay.Channel3, DEFAULT
TestParameter, Output.Graph.Enabled, true
TestParameter, Output.Graph.XAxis.Data, i1
TestParameter, Output.Graph.XAxis.Scale, Linear
TestParameter, Output.Graph.XAxis.Left, -0.1
TestParameter, Output.Graph.XAxis.Right, 0.1
TestParameter, Output.Graph.YAxis.Data, v1
TestParameter, Output.Graph.YAxis.Scale, Linear
TestParameter, Output.Graph.YAxis.Bottom, -0.05
TestParameter, Output.Graph.YAxis.Top, 0.05
TestParameter, Output.Graph.YAxis.Group, 
TestParameter, Output.List.Data, v1, i1
TestParameter, AutoAnalysis.Interpolation, false
TestParameter, AutoAnalysis.Line1.Enabled, false
TestParameter, AutoAnalysis.Line1.Type, 1
TestParameter, AutoAnalysis.Line1.Fix, True
TestParameter, AutoAnalysis.Line1.YAxis, 0
TestParameter, AutoAnalysis.Line1.Point1.Type, 0
TestParameter, AutoAnalysis.Line1.Point1.XY.X, 
TestParameter, AutoAnalysis.Line1.Point1.XY.Y, 
TestParameter, AutoAnalysis.Line1.Point1.Data.Var, 
TestParameter, AutoAnalysis.Line1.Point1.Data.Condition, 
TestParameter, AutoAnalysis.Line1.Point1.Data.Start, false
TestParameter, AutoAnalysis.Line1.Point1.Data.StartVar, 
TestParameter, AutoAnalysis.Line1.Point1.Data.StartCondition, 
TestParameter, AutoAnalysis.Line1.Point2.Type, 0
TestParameter, AutoAnalysis.Line1.Point2.XY.X, 
TestParameter, AutoAnalysis.Line1.Point2.XY.Y, 
TestParameter, AutoAnalysis.Line1.Point2.Data.Var, 
TestParameter, AutoAnalysis.Line1.Point2.Data.Condition, 
TestParameter, AutoAnalysis.Line1.Point2.Data.Start, false
TestParameter, AutoAnalysis.Line1.Point2.Data.StartVar, 
TestParameter, AutoAnalysis.Line1.Point2.Data.StartCondition, 
TestParameter, AutoAnalysis.Line1.GradientExpr, 0
TestParameter, AutoAnalysis.Line2.Enabled, false
TestParameter, AutoAnalysis.Line2.Type, 1
TestParameter, AutoAnalysis.Line2.Fix, True
TestParameter, AutoAnalysis.Line2.YAxis, 0
TestParameter, AutoAnalysis.Line2.Point1.Type, 0
TestParameter, AutoAnalysis.Line2.Point1.XY.X, 
TestParameter, AutoAnalysis.Line2.Point1.XY.Y, 
TestParameter, AutoAnalysis.Line2.Point1.Data.Var, 
TestParameter, AutoAnalysis.Line2.Point1.Data.Condition, 
TestParameter, AutoAnalysis.Line2.Point1.Data.Start, false
TestParameter, AutoAnalysis.Line2.Point1.Data.StartVar, 
TestParameter, AutoAnalysis.Line2.Point1.Data.StartCondition, 
TestParameter, AutoAnalysis.Line2.Point2.Type, 0
TestParameter, AutoAnalysis.Line2.Point2.XY.X, 
TestParameter, AutoAnalysis.Line2.Point2.XY.Y, 
TestParameter, AutoAnalysis.Line2.Point2.Data.Var, 
TestParameter, AutoAnalysis.Line2.Point2.Data.Condition, 
TestParameter, AutoAnalysis.Line2.Point2.Data.Start, false
TestParameter, AutoAnalysis.Line2.Point2.Data.StartVar, 
TestParameter, AutoAnalysis.Line2.Point2.Data.StartCondition, 
TestParameter, AutoAnalysis.Line2.GradientExpr, 0
TestParameter, AutoAnalysis.Marker.Enabled, false
TestParameter, AutoAnalysis.Marker.Data.Var, 
TestParameter, AutoAnalysis.Marker.Data.Condition, 
TestParameter, AutoAnalysis.Marker.Data.Start, false
TestParameter, AutoAnalysis.Marker.Data.StartVar, 
TestParameter, AutoAnalysis.Marker.Data.StartCondition, 
MetaData, TestRecord.EntryPoint, true
MetaData, TestRecord.RecordTime, 11/01/2017 15:48:54
MetaData, TestRecord.TestTarget, 
MetaData, TestRecord.IterationIndex, 19
MetaData, TestRecord.Preservation, true
MetaData, TestRecord.Flag, 
MetaData, TestRecord.Remarks, 
MetaData, TestRecord.LinkKey, 270b89cf-b405-4834-a24f-62880544a4b0
Dimension1, 101, 101
Dimension2, 1, 1
DataName, v1, i1
DataValue, -0.05, 3.0999999999999997E-12
DataValue, -0.049, -1.5999999999999999E-12
DataValue, -0.048, -6.5999999999999993E-12
DataValue, -0.047, -1.02E-11
DataValue, -0.046, 6.3999999999999994E-12
DataValue, -0.045000000000000005, 2.6E-12
DataValue, -0.044000000000000004, 1.7999999999999998E-12
DataValue, -0.043000000000000003, -3.0999999999999997E-12
DataValue, -0.042, -1E-12
DataValue, -0.041, -4.6E-12
DataValue, -0.04, -1.01E-11
DataValue, -0.039, -4.2E-12
DataValue, -0.038, -8.2E-12
DataValue, -0.037000000000000005, -4.7E-12
DataValue, -0.036000000000000004, -3E-13
DataValue, -0.035, 2.7E-12
DataValue, -0.034, -7.6E-12
DataValue, -0.033, -1.2599999999999999E-11
DataValue, -0.032, -3.8E-12
DataValue, -0.031, -5.4999999999999996E-12
DataValue, -0.030000000000000002, 3.9999999999999996E-13
DataValue, -0.029, 9.999999999999999E-14
DataValue, -0.028, 3E-13
DataValue, -0.027, -5.2E-12
DataValue, -0.026000000000000002, -2.9999999999999997E-12
DataValue, -0.025, -5.4999999999999996E-12
DataValue, -0.024, -2.7E-12
DataValue, -0.023, 1.9E-12
DataValue, -0.022000000000000002, -1.9999999999999998E-13
DataValue, -0.021, -4.8E-12
DataValue, -0.02, -5.1E-12
DataValue, -0.019, -3.5999999999999996E-12
DataValue, -0.018000000000000002, -5.2E-12
DataValue, -0.017, -2.6E-12
DataValue, -0.016, -1E-12
DataValue, -0.015000000000000001, -5.2E-12
DataValue, -0.014, 0
DataValue, -0.013000000000000001, -8.999999999999999E-13
DataValue, -0.012, 5E-13
DataValue, -0.011000000000000001, -6E-13
DataValue, -0.01, -2.1E-12
DataValue, -0.0090000000000000011, -7.8E-12
DataValue, -0.008, 3.9999999999999996E-13
DataValue, -0.007, -7.9999999999999992E-13
DataValue, -0.006, -3E-13
DataValue, -0.005, -1.02E-11
DataValue, -0.004, -4.9E-12
DataValue, -0.003, 8.999999999999999E-13
DataValue, -0.002, -2.9999999999999997E-12
DataValue, -0.001, -4.9E-12
DataValue, 0, -6.7999999999999993E-12
DataValue, 0.001, -7.9999999999999992E-13
DataValue, 0.002, -1.1699999999999999E-11
DataValue, 0.003, -3E-13
DataValue, 0.004, -6.0999999999999995E-12
DataValue, 0.005, 5.5999999999999996E-12
DataValue, 0.006, -1.3E-12
DataValue, 0.007, -7.5E-12
DataValue, 0.008, -1.09E-11
DataValue, 0.0090000000000000011, 7.5E-12
DataValue, 0.01, 1E-12
DataValue, 0.011000000000000001, -2.1E-12
DataValue, 0.012, -1.7999999999999998E-12
DataValue, 0.013000000000000001, -1.9999999999999998E-13
DataValue, 0.014, 6.2999999999999994E-12
DataValue, 0.015000000000000001, 1.2E-12
DataValue, 0.016, 6E-13
DataValue, 0.017, -8.6E-12
DataValue, 0.018000000000000002, -6.3999999999999994E-12
DataValue, 0.019, -1.4999999999999999E-12
DataValue, 0.02, -1.3999999999999999E-12
DataValue, 0.021, -3.2999999999999997E-12
DataValue, 0.022000000000000002, -5.2E-12
DataValue, 0.023, 2.4E-12
DataValue, 0.024, -2.2E-12
DataValue, 0.025, -7.0999999999999992E-12
DataValue, 0.026000000000000002, 3.9999999999999996E-13
DataValue, 0.027, 2.7E-12
DataValue, 0.028, -7.8E-12
DataValue, 0.029, -6.5999999999999993E-12
DataValue, 0.030000000000000002, -3E-13
DataValue, 0.031, 2.7E-12
DataValue, 0.032, -2.8999999999999998E-12
DataValue, 0.033, 2E-12
DataValue, 0.034, 7.9999999999999992E-13
DataValue, 0.035, 1.1E-12
DataValue, 0.036000000000000004, 4E-12
DataValue, 0.037000000000000005, 5.2E-12
DataValue, 0.038, 1.2E-12
DataValue, 0.039, -2.7999999999999998E-12
DataValue, 0.04, -6.2999999999999994E-12
DataValue, 0.041, -1.1E-12
DataValue, 0.042, -1.5999999999999999E-12
DataValue, 0.043000000000000003, 2.5E-12
DataValue, 0.044000000000000004, 4.6E-12
DataValue, 0.045000000000000005, -2.1E-12
DataValue, 0.046, -2.9999999999999997E-12
DataValue, 0.047, 1.3999999999999999E-12
DataValue, 0.048, -1.7999999999999998E-12
DataValue, 0.049, -6.1999999999999994E-12
DataValue, 0.05, -1.3999999999999999E-12